Circuit: * Z:\home\jkmunson\workspace\sp24\EENG_331_LAB3\TASK3_3v.asc

Direct Newton iteration for .op point succeeded.
Semiconductor Device Operating Points:
                        --- MOSFET Transistors ---
Name:          m1
Model:        nmos
Id:          1.40e-02
Vgs:         2.53e+01
Vds:         3.00e+00
Vbs:         0.00e+00
Vth:         5.00e-01
Vdsat:       2.48e+01
Gm:          6.00e-04
Gds:         4.37e-03
Gmb:         0.00e+00
Cbd:         0.00e+00
Cbs:         0.00e+00
Cgsov:       0.00e+00
Cgdov:       0.00e+00
Cgbov:       0.00e+00
Cgs:         0.00e+00
Cgd:         0.00e+00
Cgb:         0.00e+00



Date: Tue Apr 23 04:24:59 2024
Total elapsed time: 0.068 seconds.

tnom = 27
temp = 27
method = trap
totiter = 7
traniter = 0
tranpoints = 0
accept = 0
rejected = 0
matrix size = 5
fillins = 0
solver = Normal
Matrix Compiler1: 114 bytes object code size
Matrix Compiler2: 301 bytes object code size
