Circuit: * Z:\home\jkmunson\workspace\sp24\EENG_331_LAB3\TASK3.asc

Direct Newton iteration for .op point succeeded.
Semiconductor Device Operating Points:
                        --- MOSFET Transistors ---
Name:          m1
Model:        nmos
Id:          1.00e-02
Vgs:         1.30e+01
Vds:         5.00e+00
Vbs:         0.00e+00
Vth:         5.00e-01
Vdsat:       1.25e+01
Gm:          1.00e-03
Gds:         1.50e-03
Gmb:         0.00e+00
Cbd:         0.00e+00
Cbs:         0.00e+00
Cgsov:       0.00e+00
Cgdov:       0.00e+00
Cgbov:       0.00e+00
Cgs:         0.00e+00
Cgd:         0.00e+00
Cgb:         0.00e+00



Date: Tue Apr 23 04:15:16 2024
Total elapsed time: 0.088 seconds.

tnom = 27
temp = 27
method = trap
totiter = 6
traniter = 0
tranpoints = 0
accept = 0
rejected = 0
matrix size = 5
fillins = 0
solver = Normal
Matrix Compiler1: 114 bytes object code size
Matrix Compiler2: 301 bytes object code size
