Circuit: * Z:\home\jkmunson\workspace\sp24\EENG_331_LAB3\TASK2.asc

Direct Newton iteration for .op point succeeded.
Semiconductor Device Operating Points:
                        --- MOSFET Transistors ---
Name:          m2          m1
Model:        nmos        nmos
Id:          2.03e-03    2.03e-03
Vgs:         5.00e+00    5.00e+00
Vds:         4.75e+00    4.75e+00
Vbs:         0.00e+00    0.00e+00
Vth:         5.00e-01    5.00e-01
Vdsat:       4.50e+00    4.50e+00
Gm:          9.00e-04    9.00e-04
Gds:         0.00e+00    0.00e+00
Gmb:         0.00e+00    0.00e+00
Cbd:         0.00e+00    0.00e+00
Cbs:         0.00e+00    0.00e+00
Cgsov:       0.00e+00    0.00e+00
Cgdov:       0.00e+00    0.00e+00
Cgbov:       0.00e+00    0.00e+00
Cgs:         0.00e+00    0.00e+00
Cgd:         0.00e+00    0.00e+00
Cgb:         0.00e+00    0.00e+00



Date: Tue Apr 23 03:42:45 2024
Total elapsed time: 0.076 seconds.

tnom = 27
temp = 27
method = trap
totiter = 5
traniter = 0
tranpoints = 0
accept = 0
rejected = 0
matrix size = 5
fillins = 0
solver = Normal
Matrix Compiler1: 96 bytes object code size
Matrix Compiler2: 387 bytes object code size
