Circuit: * Z:\home\jkmunson\workspace\sp24\EENG_331_LAB3\TASK3_2v.asc

Direct Newton iteration for .op point succeeded.
Semiconductor Device Operating Points:
                        --- MOSFET Transistors ---
Name:          m1
Model:        nmos
Id:          1.60e-02
Vgs:         4.15e+01
Vds:         2.00e+00
Vbs:         0.00e+00
Vth:         5.00e-01
Vdsat:       4.10e+01
Gm:          4.00e-04
Gds:         7.80e-03
Gmb:         0.00e+00
Cbd:         0.00e+00
Cbs:         0.00e+00
Cgsov:       0.00e+00
Cgdov:       0.00e+00
Cgbov:       0.00e+00
Cgs:         0.00e+00
Cgd:         0.00e+00
Cgb:         0.00e+00



Date: Tue Apr 23 04:23:02 2024
Total elapsed time: 0.096 seconds.

tnom = 27
temp = 27
method = trap
totiter = 7
traniter = 0
tranpoints = 0
accept = 0
rejected = 0
matrix size = 5
fillins = 0
solver = Normal
Matrix Compiler1: 114 bytes object code size
Matrix Compiler2: 301 bytes object code size
